
**** 05/26/13 21:52:55 ********* PSpice 9.2 (Mar 2000) ******** ID# 1 ********

 ** Profile: "SCHEMATIC1-2"  [ G:\43FZ\paralel-schematic1-2.sim ] 


 ****     CIRCUIT DESCRIPTION


******************************************************************************




** Creating circuit file "paralel-schematic1-2.sim.cir" 
** WARNING: THIS AUTOMATICALLY GENERATED FILE MAY BE OVERWRITTEN BY SUBSEQUENT SIMULATIONS

*Libraries: 
* Local Libraries :
* From [PSPICE NETLIST] section of g:\program files\Orcad\PSpice\PSpice.ini file:
.lib "nom.lib" 

*Analysis directives: 
.TRAN 1u 25ms 12ms 1u 
.OPTIONS NOBIAS
.OPTIONS NOMOD
.OPTIONS NOOUTMSG
.OPTIONS ITL4= 100
.OPTIONS NUMDGT= 10
.OPTIONS WIDTH= 132
.PROBE V(*) I(*) W(*) D(*) NOISE(*) 
.INC ".\paralel-SCHEMATIC1.net" 



**** INCLUDING paralel-SCHEMATIC1.net ****
* source PARALEL
R_R2         0 N50597  1MEG  
X_S4    N241303 0 N27236 N241265 SCHEMATIC1_S4 
X_S2    N236610 0 N27236 N235437 SCHEMATIC1_S2 
R_RB1         0 SHIM  3.33333  
E_DIFF3         N241303 0 VALUE {V(N257386,N254383)}
R_RB2         0 N235437  4  
E_E1         N62053 0 VALUE {
+  if(I(V_V1)<138.9473,(-25.641*log((139.2857-I(V_V1))/139.2857))/-1.204+128.2051,0)
+  }
R_RB3         0 N239113  4  
C_CN         N40356 RN1  0.001  
L_L2         N64666 RN1  5uH  
C_CF         N00729 N27236  0.009  
V_V4         N236610 0   0.1
R_R4         0 N254383  1MEG  
R_RK2         N234987 N64666  0.02630  
R_RCN         0 N40356  0.02171  
V_V3         N50597 0 DC 0.01 AC 1
+PULSE 0 0.8 0 0.0098m 0.0001m 0.01m 0.01m
R_RCF         N00729 0  6.51419e-3  
X_S3    N239167 0 N27236 N239113 SCHEMATIC1_S3 
V_V5         N239167 0   0.1
L_L1         N134688 N27236  5uH  
V_V6         N257386 0   0.7
X_S1    N27337 0 N27236 SHIM SCHEMATIC1_S1 
R_RDN         0 N27236  40  
E_DIFF1         N50582 0 VALUE {V(N08877,N27236)}
V_V2         N254251 0   1
V_V1         N62053 N134650 DC 0 AC 1 0
R_RB4         0 N241265  4  
V_Unom         N08877 0   100
R_R3         0 N254251  1MEG  
R_RA         0 RN1  3.3  
R_RK1         N134688 N134650  0.02630  
E_DIFF2         N27337 0 VALUE {V(N50597,N50582)}
R_R5         0 N257386  1MEG  
X_SwStart         N27236 N234987 Sw_tClose PARAMS: tClose=14m ttran=1u
+  Rclosed=1u Ropen=1MEG
X_U1         N254383 N254251 Sw_tClose PARAMS: tClose=14m ttran=1u Rclosed=0.01
+  Ropen=1Meg
R_R1         0 N08877  1MEG  
.IC         V(N134650 )=5
.PRINT         TRAN V([N27236]) I(R_RB1) I(R_RK1) I(R_RK2)

.subckt SCHEMATIC1_S4 1 2 3 4  
S_S4         3 4 1 2 _S4
RS_S4         1 2 1G
.MODEL         _S4 VSWITCH Roff=1e4 Ron=1m Voff=-1e-4 Von=1e-4
.ends SCHEMATIC1_S4

.subckt SCHEMATIC1_S2 1 2 3 4  
S_S2         3 4 1 2 _S2
RS_S2         1 2 1G
.MODEL         _S2 VSWITCH Roff=1e4 Ron=0.1m Voff=-1e-4 Von=1e-4
.ends SCHEMATIC1_S2

.subckt SCHEMATIC1_S3 1 2 3 4  
S_S3         3 4 1 2 _S3
RS_S3         1 2 1G
.MODEL         _S3 VSWITCH Roff=1e4 Ron=1m Voff=-1e-4 Von=1e-4
.ends SCHEMATIC1_S3

.subckt SCHEMATIC1_S1 1 2 3 4  
S_S1         3 4 1 2 _S1
RS_S1         1 2 1G
.MODEL         _S1 VSWITCH Roff=1e4 Ron=1m Voff=-1e-4 Von=1e-4
.ends SCHEMATIC1_S1

**** RESUMING paralel-schematic1-2.sim.cir ****
.END

WARNING -- Pulse Period < (Rise Time + Fall Time + Pulse Width) for V_V3
WARNING -- Pulse Period < (Rise Time + Fall Time + Pulse Width) for V_V3
**** 05/26/13 21:52:55 ********* PSpice 9.2 (Mar 2000) ******** ID# 1 ********

 ** Profile: "SCHEMATIC1-2"  [ G:\43FZ\paralel-schematic1-2.sim ] 


 ****     TRANSIENT ANALYSIS               TEMPERATURE =   27.000 DEG C


******************************************************************************



  TIME              V(N27236)         I(R_RB1)          I(R_RK1)          I(R_RK2)          

   1.200000000E-02   9.980820445E+01  -9.977494342E-03  -9.812378994E+01   9.980788261E-05
   1.200100000E-02   9.981031676E+01  -9.977705995E-03  -9.809619534E+01   9.981003483E-05
   1.200200000E-02   9.981245232E+01  -9.977919199E-03  -9.807103338E+01   9.981216605E-05
   1.200300000E-02   9.975491289E+01  -9.145171442E+00  -9.805371640E+01   9.975463032E-05
   1.200400000E-02   9.967350837E+01  -2.179306913E+01  -9.805135723E+01   9.967322343E-05
   1.200500000E-02   9.962103703E+01  -2.981479107E+01  -9.806194327E+01   9.962075394E-05
   1.200600000E-02   9.961973535E+01  -2.987698772E+01  -9.807653458E+01   9.961945034E-05
   1.200700000E-02   9.961882773E+01  -2.987671696E+01  -9.808982499E+01   9.961854834E-05
   1.200800000E-02   9.961792005E+01  -2.987644240E+01  -9.810192456E+01   9.961763191E-05
   1.200900000E-02   9.961700396E+01  -2.987616755E+01  -9.811295813E+01   9.961671451E-05
   1.201000000E-02   9.971299808E+01  -1.496986398E+01  -9.811920298E+01   9.971270608E-05
   1.201100000E-02   9.981207596E+01  -9.977881598E-03  -9.809192708E+01   9.981179062E-05
   1.201200000E-02   9.981235581E+01  -2.935052520E-01  -9.806711067E+01   9.981207186E-05
   1.201300000E-02   9.975510004E+01  -9.381099313E+00  -9.805019114E+01   9.975481663E-05
   1.201400000E-02   9.967351031E+01  -2.205399260E+01  -9.804817584E+01   9.967322402E-05
   1.201500000E-02   9.963020613E+01  -2.866766516E+01  -9.805822117E+01   9.962991819E-05
   1.201600000E-02   9.962152408E+01  -2.987752458E+01  -9.807215748E+01   9.962124463E-05
   1.201700000E-02   9.962061869E+01  -2.987725246E+01  -9.808556154E+01   9.962033681E-05
   1.201800000E-02   9.961971101E+01  -2.987697978E+01  -9.809775766E+01   9.961942535E-05
   1.201900000E-02   9.961879206E+01  -2.987670425E+01  -9.810887943E+01   9.961850529E-05
   1.202000000E-02   9.971516837E+01  -1.491203321E+01  -9.811528566E+01   9.971487699E-05
   1.202100000E-02   9.981387058E+01  -9.978061228E-03  -9.808809904E+01   9.981357936E-05
   1.202200000E-02   9.981289344E+01  -4.851833115E-01  -9.806344059E+01   9.981260859E-05
   1.202300000E-02   9.975506826E+01  -9.657275763E+00  -9.804684108E+01   9.975478485E-05
   1.202400000E-02   9.967347853E+01  -2.232596619E+01  -9.804517712E+01   9.967319733E-05
   1.202500000E-02   9.963140887E+01  -2.874678285E+01  -9.805540933E+01   9.963112373E-05
   1.202600000E-02   9.962323297E+01  -2.987803572E+01  -9.806936288E+01   9.962294928E-05
   1.202700000E-02   9.962232732E+01  -2.987776353E+01  -9.808273762E+01   9.962203902E-05
   1.202800000E-02   9.962141430E+01  -2.987749084E+01  -9.809490278E+01   9.962112757E-05
   1.202900000E-02   9.962049366E+01  -2.987721549E+01  -9.810598660E+01   9.962020811E-05
   1.203000000E-02   9.971634479E+01  -1.499310425E+01  -9.811238661E+01   9.971605463E-05
   1.203100000E-02   9.981557276E+01  -9.978231743E-03  -9.808515239E+01   9.981529003E-05
   1.203200000E-02   9.981341007E+01  -6.672472561E-01  -9.806060336E+01   9.981312752E-05
   1.203300000E-02   9.975511475E+01  -9.908125360E+00  -9.804425121E+01   9.975483124E-05
   1.203400000E-02   9.967346954E+01  -2.258109113E+01  -9.804284900E+01   9.967318834E-05
   1.203500000E-02   9.963253137E+01  -2.882432262E+01  -9.805321719E+01   9.963224470E-05
   1.203600000E-02   9.962485064E+01  -2.987852216E+01  -9.806712603E+01   9.962456478E-05
   1.203700000E-02   9.962394525E+01  -2.987825005E+01  -9.808041892E+01   9.962365478E-05
   1.203800000E-02   9.962303164E+01  -2.987797585E+01  -9.809252676E+01   9.962274782E-05
   1.203900000E-02   9.962211073E+01  -2.987769985E+01  -9.810355244E+01   9.962182519E-05
   1.204000000E-02   9.971833961E+01  -1.493524611E+01  -9.810988074E+01   9.971805092E-05
   1.204100000E-02   9.981719579E+01  -9.978392944E-03  -9.808259768E+01   9.981690612E-05
   1.204200000E-02   9.981389566E+01  -8.407670710E-01  -9.805811305E+01   9.981361017E-05
   1.204300000E-02   9.975508297E+01  -1.015781563E+01  -9.804197328E+01   9.975479946E-05
   1.204400000E-02   9.967349096E+01  -2.281858443E+01  -9.804080560E+01   9.967320975E-05
   1.204500000E-02   9.963362214E+01  -2.889473863E+01  -9.805127670E+01   9.963333134E-05
   1.204600000E-02   9.962638634E+01  -2.987898180E+01  -9.806514853E+01   9.962610500E-05
   1.204700000E-02   9.962547840E+01  -2.987870961E+01  -9.807835867E+01   9.962519184E-05
   1.204800000E-02   9.962456538E+01  -2.987843559E+01  -9.809037450E+01   9.962428329E-05
   1.204900000E-02   9.962364474E+01  -2.987815967E+01  -9.810132956E+01   9.962336093E-05
   1.205000000E-02   9.971979926E+01  -1.494684754E+01  -9.810760172E+01   9.971951228E-05
   1.205100000E-02   9.981872814E+01  -9.978546498E-03  -9.808027934E+01   9.981844020E-05
   1.205200000E-02   9.981435924E+01  -1.004303040E+00  -9.805584007E+01   9.981407426E-05
   1.205300000E-02   9.975507398E+01  -1.039138042E+01  -9.803987379E+01   9.975479047E-05
   1.205400000E-02   9.967345917E+01  -2.305191817E+01  -9.803892725E+01   9.967317798E-05
   1.205500000E-02   9.963463348E+01  -2.896453068E+01  -9.804950346E+01   9.963434636E-05
   1.205600000E-02   9.962784379E+01  -2.987942056E+01  -9.806331305E+01   9.962756261E-05
   1.205700000E-02   9.962693611E+01  -2.987914712E+01  -9.807643145E+01   9.962664753E-05
   1.205800000E-02   9.962602250E+01  -2.987887235E+01  -9.808837689E+01   9.962573838E-05
   1.205900000E-02   9.962510160E+01  -2.987859634E+01  -9.809926387E+01   9.962481576E-05
   1.206000000E-02   9.972118278E+01  -1.495841086E+01  -9.810547148E+01   9.972089378E-05
   1.206100000E-02   9.982018618E+01  -9.978692216E-03  -9.807807841E+01   9.981989894E-05
   1.206200000E-02   9.981479351E+01  -1.160694372E+00  -9.805369009E+01   9.981450793E-05
   1.206300000E-02   9.975509540E+01  -1.060823335E+01  -9.803791862E+01   9.975481189E-05
   1.206400000E-02   9.967350338E+01  -2.326174950E+01  -9.803716639E+01   9.967322218E-05
   1.206500000E-02   9.963559788E+01  -2.902982594E+01  -9.804783028E+01   9.963531181E-05
   1.206600000E-02   9.962922970E+01  -2.987983435E+01  -9.806159654E+01   9.962894470E-05
   1.206700000E-02   9.962831897E+01  -2.987956224E+01  -9.807463055E+01   9.962802960E-05
   1.206800000E-02   9.962740366E+01  -2.987928689E+01  -9.808649476E+01   9.962711596E-05
   1.206900000E-02   9.962648241E+01  -2.987901021E+01  -9.809731725E+01   9.962619081E-05
   1.207000000E-02   9.972294112E+01  -1.490051426E+01  -9.810344999E+01   9.972264999E-05
   1.207100000E-02   9.982156882E+01  -9.978830519E-03  -9.807602716E+01   9.982127750E-05
   1.207200000E-02   9.981521843E+01  -1.307511412E+00  -9.805167868E+01   9.981493305E-05
   1.207300000E-02   9.975508870E+01  -1.081850890E+01  -9.803606253E+01   9.975480509E-05
   1.207400000E-02   9.967347160E+01  -2.347214516E+01  -9.803550332E+01   9.967319040E-05
   1.207500000E-02   9.963652114E+01  -2.909074970E+01  -9.804624900E+01   9.963623326E-05
   1.207600000E-02   9.963053710E+01  -2.988022799E+01  -9.805996093E+01   9.963025485E-05
   1.207700000E-02   9.962962883E+01  -2.987995512E+01  -9.807292297E+01   9.962933917E-05
   1.207800000E-02   9.962871022E+01  -2.987967969E+01  -9.808471398E+01   9.962842527E-05
   1.207900000E-02   9.962778728E+01  -2.987940319E+01  -9.809546362E+01   9.962750073E-05
   1.208000000E-02   9.972372457E+01  -1.498153108E+01  -9.810155817E+01   9.972343469E-05
   1.208100000E-02   9.982287427E+01  -9.978960987E-03  -9.807405794E+01   9.982258800E-05
   1.208200000E-02   9.981560603E+01  -1.448412615E+00  -9.804975231E+01   9.981532217E-05
   1.208300000E-02   9.975511545E+01  -1.101325236E+01  -9.803430712E+01   9.975482650E-05
   1.208400000E-02   9.967346490E+01  -2.366840958E+01  -9.803393064E+01   9.967318141E-05
   1.208500000E-02   9.963738488E+01  -2.915017763E+01  -9.804475735E+01   9.963709742E-05
   1.208600000E-02   9.963178034E+01  -2.988060115E+01  -9.805841985E+01   9.963149869E-05
   1.208700000E-02   9.963087266E+01  -2.988032770E+01  -9.807129463E+01   9.963058360E-05
   1.208800000E-02   9.962995431E+01  -2.988005178E+01  -9.808301714E+01   9.962966996E-05
   1.208900000E-02   9.962903077E+01  -2.987977510E+01  -9.809371307E+01   9.962874481E-05
   1.209000000E-02   9.972534560E+01  -1.492361227E+01  -9.809974263E+01   9.972505629E-05
   1.209100000E-02   9.982411671E+01  -9.979085669E-03  -9.807221752E+01   9.982383104E-05
   1.209200000E-02   9.981597782E+01  -1.581623322E+00  -9.804793395E+01   9.981569414E-05
   1.209300000E-02   9.975508367E+01  -1.120612585E+01  -9.803263769E+01   9.975479471E-05
   1.209400000E-02   9.967348632E+01  -2.384993643E+01  -9.803243175E+01   9.967320282E-05
   1.209500000E-02   9.963378147E+01  -2.988120051E+01  -9.804408135E+01   9.963349333E-05
   1.209600000E-02   9.963287216E+01  -2.988092807E+01  -9.805799800E+01   9.963259449E-05
   1.209700000E-02   9.963196448E+01  -2.988065382E+01  -9.807070951E+01   9.963167576E-05
   1.209800000E-02   9.963104421E+01  -2.988037922E+01  -9.808228498E+01   9.963076394E-05
   1.209900000E-02   9.963012057E+01  -2.988010127E+01  -9.809285569E+01   9.962982995E-05
   1.210000000E-02   9.972635930E+01  -1.493508931E+01  -9.809873391E+01   9.972607057E-05
   1.210100000E-02   9.982520854E+01  -9.979194716E-03  -9.807109608E+01   9.982491871E-05
   1.210200000E-02   9.981630866E+01  -1.697525538E+00  -9.804680860E+01   9.981602291E-05
   1.210300000E-02   9.975512788E+01  -1.136382197E+01  -9.803159504E+01   9.975483893E-05
   1.210400000E-02   9.967347733E+01  -2.401321629E+01  -9.803149233E+01   9.967319385E-05
   1.210500000E-02   9.963481926E+01  -2.988151147E+01  -9.804314817E+01   9.963453399E-05
   1.210600000E-02   9.963391024E+01  -2.988123912E+01  -9.805696274E+01   9.963362944E-05
   1.210700000E-02   9.963299557E+01  -2.988096465E+01  -9.806959158E+01   9.963270874E-05
   1.210800000E-02   9.963208012E+01  -2.988069001E+01  -9.808108969E+01   9.963179677E-05
   1.210900000E-02   9.963115223E+01  -2.988041228E+01  -9.809157576E+01   9.963086349E-05
   1.211000000E-02   9.972731900E+01  -1.494664847E+01  -9.809739334E+01   9.972702967E-05
   1.211100000E-02   9.982624696E+01  -9.979298176E-03  -9.806968657E+01   9.982595727E-05
   1.211200000E-02   9.981661447E+01  -1.809294520E+00  -9.804541789E+01   9.981632958E-05
   1.211300000E-02   9.975509610E+01  -1.152534644E+01  -9.803032625E+01   9.975480714E-05
   1.211400000E-02   9.967349874E+01  -2.416388779E+01  -9.803035575E+01   9.967321525E-05
   1.211500000E-02   9.963580506E+01  -2.988180673E+01  -9.804211138E+01   9.963551586E-05
   1.211600000E-02   9.963489437E+01  -2.988153330E+01  -9.805577241E+01   9.963460635E-05
   1.211700000E-02   9.963398207E+01  -2.988125946E+01  -9.806833092E+01   9.963369575E-05
   1.211800000E-02   9.963306162E+01  -2.988098355E+01  -9.807977534E+01   9.963277560E-05
   1.211900000E-02   9.963213372E+01  -2.988070580E+01  -9.809021536E+01   9.963184857E-05
   1.212000000E-02   9.972822902E+01  -1.495821497E+01  -9.809602608E+01   9.972793775E-05
   1.212100000E-02   9.982722238E+01  -9.979395850E-03  -9.806828589E+01   9.982693383E-05
   1.212200000E-02   9.981691575E+01  -1.912849565E+00  -9.804403576E+01   9.981663038E-05
   1.212300000E-02   9.975508711E+01  -1.167510645E+01  -9.802904552E+01   9.975479815E-05
   1.212400000E-02   9.967347230E+01  -2.431469965E+01  -9.802921255E+01   9.967318347E-05
   1.212500000E-02   9.963674201E+01  -2.988208820E+01  -9.804092966E+01   9.963645499E-05
   1.212600000E-02   9.963583229E+01  -2.988181497E+01  -9.805462108E+01   9.963554974E-05
   1.212700000E-02   9.963491817E+01  -2.988154067E+01  -9.806711826E+01   9.963462958E-05
   1.212800000E-02   9.963399657E+01  -2.988126450E+01  -9.807850506E+01   9.963371776E-05
   1.212900000E-02   9.963307364E+01  -2.988098800E+01  -9.808889079E+01   9.963278448E-05
   1.213000000E-02   9.972909022E+01  -1.496965505E+01  -9.809463592E+01   9.972880296E-05
   1.213100000E-02   9.982816162E+01  -9.979489996E-03  -9.806684489E+01   9.982787325E-05
   1.213200000E-02   9.981719118E+01  -2.014361842E+00  -9.804262753E+01   9.981690587E-05
   1.213300000E-02   9.975510852E+01  -1.181367649E+01  -9.802776905E+01   9.975481957E-05
   1.213400000E-02   9.967351651E+01  -2.444747211E+01  -9.802805918E+01   9.967322767E-05
   1.213500000E-02   9.963763808E+01  -2.988235618E+01  -9.803986600E+01   9.963735052E-05
   1.213600000E-02   9.963672719E+01  -2.988208319E+01  -9.805340520E+01   9.963644009E-05
   1.213700000E-02   9.963581068E+01  -2.988180860E+01  -9.806585993E+01   9.963552354E-05
   1.213800000E-02   9.963488775E+01  -2.988153291E+01  -9.807720650E+01   9.963460278E-05
   1.213900000E-02   9.963396432E+01  -2.988125515E+01  -9.808756464E+01   9.963367846E-05
   1.214000000E-02   9.973036031E+01  -1.491168066E+01  -9.809329329E+01   9.973007170E-05
   1.214100000E-02   9.982905311E+01  -9.979578706E-03  -9.806550243E+01   9.982876705E-05
   1.214200000E-02   9.981745704E+01  -2.110230976E+00  -9.804130206E+01   9.981717242E-05
   1.214300000E-02   9.975507674E+01  -1.195362826E+01  -9.802654548E+01   9.975478778E-05
   1.214400000E-02   9.967348472E+01  -2.458511764E+01  -9.802696946E+01   9.967320099E-05
   1.214500000E-02   9.963849312E+01  -2.988261299E+01  -9.803875505E+01   9.963820250E-05
   1.214600000E-02   9.963758216E+01  -2.988233948E+01  -9.805229069E+01   9.963729529E-05
   1.214700000E-02   9.963666685E+01  -2.988206489E+01  -9.806469855E+01   9.963638081E-05
   1.214800000E-02   9.963574547E+01  -2.988178875E+01  -9.807600921E+01   9.963545845E-05
   1.214900000E-02   9.963481683E+01  -2.988151081E+01  -9.808632328E+01   9.963452917E-05
   1.215000000E-02   9.973068978E+01  -1.499263572E+01  -9.809202348E+01   9.973039798E-05
   1.215100000E-02   9.982990843E+01  -9.979664121E-03  -9.806417298E+01   9.982961916E-05
   1.215200000E-02   9.981771809E+01  -2.200695664E+00  -9.804001795E+01   9.981743251E-05
   1.215300000E-02   9.975512095E+01  -1.207565890E+01  -9.802537353E+01   9.975483199E-05
   1.215400000E-02   9.967347574E+01  -2.471331532E+01  -9.802591339E+01   9.967319200E-05
   1.215500000E-02   9.964206707E+01  -2.946347554E+01  -9.803712248E+01   9.964177669E-05
   1.215600000E-02   9.963845841E+01  -2.988260255E+01  -9.805049894E+01   9.963817299E-05
   1.215700000E-02   9.963754310E+01  -2.988232853E+01  -9.806292529E+01   9.963725063E-05
   1.215800000E-02   9.963662186E+01  -2.988205109E+01  -9.807425228E+01   9.963633420E-05
   1.215900000E-02   9.963569333E+01  -2.988177260E+01  -9.808458135E+01   9.963540430E-05
   1.216000000E-02   9.973194461E+01  -1.493465765E+01  -9.809028410E+01   9.973165581E-05
   1.216100000E-02   9.983078540E+01  -9.979751974E-03  -9.806246347E+01   9.983049915E-05
   1.216200000E-02   9.981797932E+01  -2.295021436E+00  -9.803837053E+01   9.981769464E-05
   1.216300000E-02   9.975508917E+01  -1.221342766E+01  -9.802386927E+01   9.975480021E-05
   1.216400000E-02   9.967349715E+01  -2.484062466E+01  -9.802456379E+01   9.967321341E-05
   1.216500000E-02   9.964265415E+01  -2.950193688E+01  -9.803584782E+01   9.964236737E-05
   1.216600000E-02   9.963928992E+01  -2.988285238E+01  -9.804922781E+01   9.963900963E-05
   1.216700000E-02   9.963837435E+01  -2.988257828E+01  -9.806163223E+01   9.963808700E-05
   1.216800000E-02   9.963745371E+01  -2.988230102E+01  -9.807292875E+01   9.963716608E-05
   1.216900000E-02   9.963652543E+01  -2.988202262E+01  -9.808323239E+01   9.963623427E-05
   1.217000000E-02   9.973270242E+01  -1.494614339E+01  -9.808892446E+01   9.973241148E-05
   1.217100000E-02   9.983161995E+01  -9.979835452E-03  -9.806107956E+01   9.983132869E-05
   1.217200000E-02   9.981823409E+01  -2.383391404E+00  -9.803703068E+01   9.981794876E-05
   1.217300000E-02   9.975508017E+01  -1.234095519E+01  -9.802263670E+01   9.975479121E-05
   1.217400000E-02   9.967346537E+01  -2.496954086E+01  -9.802346662E+01   9.967318163E-05
   1.217500000E-02   9.964320598E+01  -2.953962196E+01  -9.803481403E+01   9.964291384E-05
   1.217600000E-02   9.964008361E+01  -2.988309087E+01  -9.804816235E+01   9.963979567E-05
   1.217700000E-02   9.963916830E+01  -2.988281552E+01  -9.806052328E+01   9.963887840E-05
   1.217800000E-02   9.963824706E+01  -2.988253884E+01  -9.807178937E+01   9.963795906E-05
