
**** 06/03/13 10:20:21 ********* PSpice 9.2 (Mar 2000) ******** ID# 1 ********

 ** Profile: "SCHEMATIC1-2"  [ G:\44FZ\paralel-schematic1-2.sim ] 


 ****     CIRCUIT DESCRIPTION


******************************************************************************




** Creating circuit file "paralel-schematic1-2.sim.cir" 
** WARNING: THIS AUTOMATICALLY GENERATED FILE MAY BE OVERWRITTEN BY SUBSEQUENT SIMULATIONS

*Libraries: 
* Local Libraries :
* From [PSPICE NETLIST] section of g:\program files\Orcad\PSpice\PSpice.ini file:
.lib "nom.lib" 

*Analysis directives: 
.TRAN 1u 25ms 13ms 1u 
.OPTIONS NOBIAS
.OPTIONS NOMOD
.OPTIONS NOOUTMSG
.OPTIONS ITL4= 100
.OPTIONS NUMDGT= 10
.OPTIONS WIDTH= 132
.PROBE V(*) I(*) W(*) D(*) NOISE(*) 
.INC ".\paralel-SCHEMATIC1.net" 



**** INCLUDING paralel-SCHEMATIC1.net ****
* source PARALEL
R_R2         0 N50597  1MEG  
X_S4    N241303 0 N27236 N241265 SCHEMATIC1_S4 
X_S2    N236610 0 N27236 N235437 SCHEMATIC1_S2 
R_RB1         0 SHIM  3.33333  
R_R6         0 N260882  1MEG  
E_DIFF3         N241303 0 VALUE {V(N257386,N254383)}
R_RB2         0 N235437  4  
R_R8         0 N260240  1MEG  
X_U2         N260882 N254383 Sw_tClose PARAMS: tClose=24m ttran=1u Rclosed=0.01
+  Ropen=1Meg
E_E1         N62053 0 VALUE {
+  if(I(V_V1)<138.9473,(-25.641*log((139.2857-I(V_V1))/139.2857))/-1.204+128.2051,0)
+  }
R_RB3         0 N239113  4  
C_CN         N40356 RN1  0.001  
L_L2         N64666 RN1  5uH  
C_CF         N00729 N27236  0.009  
V_V4         N259871 0   0.7
R_R4         0 N254383  1MEG  
R_RK2         N234987 N64666  0.02630  
R_RCN         0 N40356  0.02171  
V_V3         N50597 0 DC 0.01 AC 1
+PULSE 0 0.8 0 0.0098m 0.0001m 0.01m 0.01m
R_RCF         N00729 0  6.51419e-3  
X_S3    N239167 0 N27236 N239113 SCHEMATIC1_S3 
V_V5         N260240 0   0.7
X_U3         N260009 N260882 Sw_tClose PARAMS: tClose=24m ttran=1u Rclosed=0.01
+  Ropen=1Meg
R_R7         0 N260009  1MEG  
L_L1         N134688 N27236  5uH  
V_V6         N257386 0   0.7
X_S1    N27337 0 N27236 SHIM SCHEMATIC1_S1 
R_RDN         0 N27236  40  
E_DIFF1         N50582 0 VALUE {V(N08877,N27236)}
E_DIFF4         N239167 0 VALUE {V(N260240,N260882)}
V_V2         N254251 0   1
V_V1         N62053 N134650 DC 0 AC 1 0
R_RB4         0 N241265  4  
V_Unom         N08877 0   100
R_R3         0 N254251  1MEG  
E_DIFF5         N236610 0 VALUE {V(N259871,N260009)}
R_RA         0 RN1  10  
R_RK1         N134688 N134650  0.02630  
E_DIFF2         N27337 0 VALUE {V(N50597,N50582)}
R_R5         0 N257386  1MEG  
X_SwStart         N27236 N234987 Sw_tClose PARAMS: tClose=14m ttran=1u
+  Rclosed=1u Ropen=1MEG
X_U1         N254383 N254251 Sw_tClose PARAMS: tClose=24m ttran=1u Rclosed=0.01
+  Ropen=1Meg
R_R1         0 N08877  1MEG  
R_R9         0 N259871  1MEG  
.IC         V(N134650 )=5
.PRINT         TRAN V([N27236]) I(R_RB1) I(R_RK1) I(R_RK2)

.subckt SCHEMATIC1_S4 1 2 3 4  
S_S4         3 4 1 2 _S4
RS_S4         1 2 1G
.MODEL         _S4 VSWITCH Roff=1e4 Ron=1m Voff=-1e-4 Von=1e-4
.ends SCHEMATIC1_S4

.subckt SCHEMATIC1_S2 1 2 3 4  
S_S2         3 4 1 2 _S2
RS_S2         1 2 1G
.MODEL         _S2 VSWITCH Roff=1e4 Ron=0.1m Voff=-1e-4 Von=1e-4
.ends SCHEMATIC1_S2

.subckt SCHEMATIC1_S3 1 2 3 4  
S_S3         3 4 1 2 _S3
RS_S3         1 2 1G
.MODEL         _S3 VSWITCH Roff=1e4 Ron=1m Voff=-1e-4 Von=1e-4
.ends SCHEMATIC1_S3

.subckt SCHEMATIC1_S1 1 2 3 4  
S_S1         3 4 1 2 _S1
RS_S1         1 2 1G
.MODEL         _S1 VSWITCH Roff=1e4 Ron=1m Voff=-1e-4 Von=1e-4
.ends SCHEMATIC1_S1

**** RESUMING paralel-schematic1-2.sim.cir ****
.END

WARNING -- Pulse Period < (Rise Time + Fall Time + Pulse Width) for V_V3
WARNING -- Pulse Period < (Rise Time + Fall Time + Pulse Width) for V_V3
**** 06/03/13 10:20:21 ********* PSpice 9.2 (Mar 2000) ******** ID# 1 ********

 ** Profile: "SCHEMATIC1-2"  [ G:\44FZ\paralel-schematic1-2.sim ] 


 ****     TRANSIENT ANALYSIS               TEMPERATURE =   27.000 DEG C


******************************************************************************



  TIME              V(N27236)         I(R_RB1)          I(R_RK1)          I(R_RK2)          

   1.300000000E-02   9.984607645E+01  -9.981280130E-03  -9.806647556E+01   9.984545502E-05
   1.300100000E-02   9.984817359E+01  -9.981489939E-03  -9.803760070E+01   9.984758581E-05
   1.300200000E-02   9.983615145E+01  -2.173067163E+00  -9.801264037E+01   9.983556573E-05
   1.300300000E-02   9.975512896E+01  -1.486764063E+01  -9.799906096E+01   9.975454050E-05
   1.300400000E-02   9.967346154E+01  -2.746407519E+01  -9.800230833E+01   9.967287030E-05
   1.300500000E-02   9.965686699E+01  -2.988812291E+01  -9.801553322E+01   9.965628247E-05
   1.300600000E-02   9.965594395E+01  -2.988784784E+01  -9.802807138E+01   9.965535854E-05
   1.300700000E-02   9.965501936E+01  -2.988756898E+01  -9.803949567E+01   9.965443225E-05
   1.300800000E-02   9.965408791E+01  -2.988728867E+01  -9.804991549E+01   9.965349473E-05
   1.300900000E-02   9.965314942E+01  -2.988700828E+01  -9.805944311E+01   9.965256203E-05
   1.301000000E-02   9.974900249E+01  -1.499975064E+01  -9.806438707E+01   9.974841035E-05
   1.301100000E-02   9.984825992E+01  -9.981498587E-03  -9.803590687E+01   9.984766620E-05
   1.301200000E-02   9.982323176E+01  -4.164554324E+00  -9.801240153E+01   9.982264581E-05
   1.301300000E-02   9.975512562E+01  -1.485039327E+01  -9.800007286E+01   9.975453825E-05
   1.301400000E-02   9.967348691E+01  -2.745750905E+01  -9.800212104E+01   9.967289664E-05
   1.301500000E-02   9.965716010E+01  -2.984531780E+01  -9.801497253E+01   9.965657167E-05
   1.301600000E-02   9.965596811E+01  -2.988785255E+01  -9.802753023E+01   9.965537978E-05
   1.301700000E-02   9.965503951E+01  -2.988757427E+01  -9.803901146E+01   9.965445052E-05
   1.301800000E-02   9.965410880E+01  -2.988729581E+01  -9.804947619E+01   9.965351927E-05
   1.301900000E-02   9.965317194E+01  -2.988701426E+01  -9.805904213E+01   9.965258217E-05
   1.302000000E-02   9.974939908E+01  -1.494163415E+01  -9.806403598E+01   9.974880605E-05
   1.302100000E-02   9.984827886E+01  -9.981501114E-03  -9.803558713E+01   9.984768884E-05
   1.302200000E-02   9.982322205E+01  -4.169164654E+00  -9.801211155E+01   9.982263808E-05
   1.302300000E-02   9.975509384E+01  -1.485861075E+01  -9.799981633E+01   9.975450646E-05
   1.302400000E-02   9.967353109E+01  -2.745395469E+01  -9.800188400E+01   9.967294083E-05
   1.302500000E-02   9.965717842E+01  -2.984593971E+01  -9.801476558E+01   9.965658912E-05
   1.302600000E-02   9.965598435E+01  -2.988786007E+01  -9.802734793E+01   9.965539525E-05
   1.302700000E-02   9.965506142E+01  -2.988758200E+01  -9.803883037E+01   9.965447143E-05
   1.302800000E-02   9.965412590E+01  -2.988730202E+01  -9.804931401E+01   9.965354160E-05
   1.302900000E-02   9.965318699E+01  -2.988702149E+01  -9.805889797E+01   9.965260379E-05
   1.303000000E-02   9.974934421E+01  -1.495302014E+01  -9.806390092E+01   9.974875394E-05
   1.303100000E-02   9.984829775E+01  -9.981502863E-03  -9.803547238E+01   9.984770954E-05
   1.303200000E-02   9.982324880E+01  -4.168223206E+00  -9.801200429E+01   9.982266450E-05
   1.303300000E-02   9.975508485E+01  -1.486323456E+01  -9.799971166E+01   9.975449747E-05
   1.303400000E-02   9.967349933E+01  -2.746198448E+01  -9.800179372E+01   9.967290906E-05
   1.303500000E-02   9.965719823E+01  -2.984640536E+01  -9.801467522E+01   9.965660805E-05
   1.303600000E-02   9.965600774E+01  -2.988786594E+01  -9.802725730E+01   9.965541758E-05
   1.303700000E-02   9.965507780E+01  -2.988758766E+01  -9.803875530E+01   9.965449304E-05
   1.303800000E-02   9.965414709E+01  -2.988730764E+01  -9.804924174E+01   9.965355707E-05
   1.303900000E-02   9.965321023E+01  -2.988702732E+01  -9.805882440E+01   9.965261869E-05
   1.304000000E-02   9.974929344E+01  -1.496436386E+01  -9.806383451E+01   9.974870212E-05
   1.304100000E-02   9.984832146E+01  -9.981504807E-03  -9.803539774E+01   9.984773218E-05
   1.304200000E-02   9.982324137E+01  -4.172733767E+00  -9.801194014E+01   9.982265166E-05
   1.304300000E-02   9.975510626E+01  -1.486299734E+01  -9.799966042E+01   9.975451671E-05
   1.304400000E-02   9.967349416E+01  -2.746582172E+01  -9.800174859E+01   9.967290388E-05
   1.304500000E-02   9.965720987E+01  -2.984703260E+01  -9.801463469E+01   9.965661910E-05
   1.304600000E-02   9.965602893E+01  -2.988787156E+01  -9.802722264E+01   9.965543777E-05
   1.304700000E-02   9.965510104E+01  -2.988759349E+01  -9.803871287E+01   9.965450922E-05
   1.304800000E-02   9.965416976E+01  -2.988731329E+01  -9.804920593E+01   9.965357741E-05
   1.304900000E-02   9.965323276E+01  -2.988703294E+01  -9.805878993E+01   9.965264016E-05
   1.305000000E-02   9.974969003E+01  -1.490624732E+01  -9.806378480E+01   9.974909782E-05
   1.305100000E-02   9.984833844E+01  -9.981506556E-03  -9.803537453E+01   9.984774560E-05
   1.305200000E-02   9.982326585E+01  -4.171608575E+00  -9.801191375E+01   9.982267593E-05
   1.305300000E-02   9.975509728E+01  -1.486736065E+01  -9.799962671E+01   9.975450772E-05
   1.305400000E-02   9.967351175E+01  -2.746602965E+01  -9.800171321E+01   9.967292148E-05
   1.305500000E-02   9.965723006E+01  -2.984741730E+01  -9.801460316E+01   9.965663842E-05
   1.305600000E-02   9.965604532E+01  -2.988787722E+01  -9.802719627E+01   9.965545339E-05
   1.305700000E-02   9.965511594E+01  -2.988759910E+01  -9.803868676E+01   9.965452941E-05
   1.305800000E-02   9.965418538E+01  -2.988731912E+01  -9.804917150E+01   9.965359959E-05
   1.305900000E-02   9.965324852E+01  -2.988703881E+01  -9.805874801E+01   9.965266249E-05
   1.306000000E-02   9.974918399E+01  -1.498709264E+01  -9.806377037E+01   9.974859091E-05
   1.306100000E-02   9.984835928E+01  -9.981508501E-03  -9.803533327E+01   9.984776824E-05
   1.306200000E-02   9.982325841E+01  -4.175922135E+00  -9.801187478E+01   9.982266817E-05
   1.306300000E-02   9.975511869E+01  -1.486684375E+01  -9.799959835E+01   9.975452404E-05
   1.306400000E-02   9.967347999E+01  -2.747366069E+01  -9.800169428E+01   9.967288971E-05
   1.306500000E-02   9.965724171E+01  -2.984799393E+01  -9.801457923E+01   9.965664948E-05
   1.306600000E-02   9.965606092E+01  -2.988788305E+01  -9.802716735E+01   9.965547429E-05
   1.306700000E-02   9.965513799E+01  -2.988760497E+01  -9.803865775E+01   9.965454574E-05
   1.306800000E-02   9.965420176E+01  -2.988732478E+01  -9.804914465E+01   9.965361393E-05
   1.306900000E-02   9.965326342E+01  -2.988704442E+01  -9.805872745E+01   9.965267668E-05
   1.307000000E-02   9.974958058E+01  -1.492897513E+01  -9.806372829E+01   9.974898660E-05
   1.307100000E-02   9.984837340E+01  -9.981510249E-03  -9.803531770E+01   9.984778166E-05
   1.307200000E-02   9.982325894E+01  -4.178476842E+00  -9.801184187E+01   9.982266849E-05
   1.307300000E-02   9.975508691E+01  -1.487448312E+01  -9.799956997E+01   9.975449225E-05
   1.307400000E-02   9.967352417E+01  -2.746951975E+01  -9.800166588E+01   9.967293390E-05
   1.307500000E-02   9.965699142E+01  -2.988816073E+01  -9.801471914E+01   9.965639865E-05
   1.307600000E-02   9.965606898E+01  -2.988788432E+01  -9.802727514E+01   9.965547527E-05
   1.307700000E-02   9.965513949E+01  -2.988760618E+01  -9.803874945E+01   9.965455131E-05
   1.307800000E-02   9.965420893E+01  -2.988732617E+01  -9.804922517E+01   9.965362137E-05
   1.307900000E-02   9.965327196E+01  -2.988704586E+01  -9.805879532E+01   9.965268416E-05
   1.308000000E-02   9.974951084E+01  -1.494030000E+01  -9.806379157E+01   9.974891668E-05
   1.308100000E-02   9.984838185E+01  -9.981511262E-03  -9.803536322E+01   9.984778975E-05
   1.308200000E-02   9.982327088E+01  -4.177474066E+00  -9.801189563E+01   9.982268032E-05
   1.308300000E-02   9.975513112E+01  -1.486837651E+01  -9.799961486E+01   9.975453647E-05
   1.308400000E-02   9.967349241E+01  -2.747515393E+01  -9.800170799E+01   9.967289959E-05
   1.308500000E-02   9.965699630E+01  -2.988816144E+01  -9.801475144E+01   9.965640464E-05
   1.308600000E-02   9.965607482E+01  -2.988788530E+01  -9.802728546E+01   9.965548220E-05
   1.308700000E-02   9.965514571E+01  -2.988760726E+01  -9.803876054E+01   9.965455248E-05
   1.308800000E-02   9.965421444E+01  -2.988732710E+01  -9.804923788E+01   9.965362068E-05
   1.308900000E-02   9.965327754E+01  -2.988704673E+01  -9.805881114E+01   9.965268353E-05
   1.309000000E-02   9.974944061E+01  -1.495170009E+01  -9.806380910E+01   9.974884628E-05
   1.309100000E-02   9.984839030E+01  -9.981511344E-03  -9.803536011E+01   9.984779512E-05
   1.309200000E-02   9.982325884E+01  -4.180304116E+00  -9.801189481E+01   9.982266818E-05
   1.309300000E-02   9.975509933E+01  -1.487405358E+01  -9.799961929E+01   9.975450468E-05
   1.309400000E-02   9.967348722E+01  -2.747665414E+01  -9.800171626E+01   9.967289440E-05
   1.309500000E-02   9.965700102E+01  -2.988816318E+01  -9.801475549E+01   9.965640900E-05
   1.309600000E-02   9.965607951E+01  -2.988788633E+01  -9.802728667E+01   9.965548653E-05
   1.309700000E-02   9.965514967E+01  -2.988760807E+01  -9.803877300E+01   9.965455609E-05
   1.309800000E-02   9.965421895E+01  -2.988732961E+01  -9.804924191E+01   9.965362483E-05
   1.309900000E-02   9.965328218E+01  -2.988704811E+01  -9.805881056E+01   9.965268782E-05
   1.310000000E-02   9.974937018E+01  -1.496313115E+01  -9.806381137E+01   9.974877568E-05
   1.310100000E-02   9.984838916E+01  -9.981512162E-03  -9.803537505E+01   9.984779671E-05
   1.310200000E-02   9.982327877E+01  -4.177561096E+00  -9.801190657E+01   9.982268811E-05
   1.310300000E-02   9.975509035E+01  -1.487613755E+01  -9.799961838E+01   9.975449569E-05
   1.310400000E-02   9.967350482E+01  -2.747462426E+01  -9.800171407E+01   9.967291200E-05
   1.310500000E-02   9.965700066E+01  -2.988816427E+01  -9.801476065E+01   9.965640864E-05
   1.310600000E-02   9.965607915E+01  -2.988788813E+01  -9.802729149E+01   9.965549209E-05
   1.310700000E-02   9.965515622E+01  -2.988761008E+01  -9.803876265E+01   9.965456371E-05
   1.310800000E-02   9.965422088E+01  -2.988733012E+01  -9.804923491E+01   9.965363261E-05
   1.310900000E-02   9.965328818E+01  -2.988704960E+01  -9.805880639E+01   9.965269489E-05
   1.311000000E-02   9.974930446E+01  -1.497442410E+01  -9.806380599E+01   9.974870960E-05
   1.311100000E-02   9.984839761E+01  -9.981512244E-03  -9.803536431E+01   9.984780480E-05
   1.311200000E-02   9.982326673E+01  -4.180342188E+00  -9.801189812E+01   9.982267597E-05
   1.311300000E-02   9.975511176E+01  -1.487345010E+01  -9.799962054E+01   9.975451711E-05
   1.311400000E-02   9.967347306E+01  -2.748012928E+01  -9.800171040E+01   9.967288024E-05
   1.311500000E-02   9.965700879E+01  -2.988816633E+01  -9.801475347E+01   9.965641641E-05
   1.311600000E-02   9.965608658E+01  -2.988788997E+01  -9.802729415E+01   9.965549325E-05
   1.311700000E-02   9.965515728E+01  -2.988761188E+01  -9.803876704E+01   9.965456335E-05
   1.311800000E-02   9.965422672E+01  -2.988733192E+01  -9.804923272E+01   9.965363225E-05
   1.311900000E-02   9.965328995E+01  -2.988705161E+01  -9.805880150E+01   9.965269524E-05
   1.312000000E-02   9.974968579E+01  -1.491630562E+01  -9.806379443E+01   9.974908710E-05
   1.312100000E-02   9.984839647E+01  -9.981513061E-03  -9.803537163E+01   9.984780367E-05
   1.312200000E-02   9.982326267E+01  -4.181439679E+00  -9.801188809E+01   9.982267191E-05
   1.312300000E-02   9.975507998E+01  -1.487902916E+01  -9.799960970E+01   9.975448532E-05
   1.312400000E-02   9.967351724E+01  -2.747397118E+01  -9.800169994E+01   9.967292442E-05
   1.312500000E-02   9.965701184E+01  -2.988816724E+01  -9.801474740E+01   9.965641947E-05
   1.312600000E-02   9.965609036E+01  -2.988789111E+01  -9.802727552E+01   9.965549703E-05
   1.312700000E-02   9.965516055E+01  -2.988761285E+01  -9.803875798E+01   9.965457251E-05
   1.312800000E-02   9.965422982E+01  -2.988733285E+01  -9.804922894E+01   9.965363674E-05
   1.312900000E-02   9.965329308E+01  -2.988705254E+01  -9.805879447E+01   9.965269837E-05
   1.313000000E-02   9.974916449E+01  -1.499714907E+01  -9.806380288E+01   9.974856929E-05
   1.313100000E-02   9.984840492E+01  -9.981513143E-03  -9.803535325E+01   9.984781176E-05
   1.313200000E-02   9.982327462E+01  -4.180297422E+00  -9.801188616E+01   9.982268375E-05
   1.313300000E-02   9.975512419E+01  -1.487272984E+01  -9.799960654E+01   9.975452954E-05
   1.313400000E-02   9.967348548E+01  -2.747942022E+01  -9.800170122E+01   9.967289266E-05
   1.313500000E-02   9.965701656E+01  -2.988816828E+01  -9.801473619E+01   9.965642383E-05
   1.313600000E-02   9.965609435E+01  -2.988789192E+01  -9.802727701E+01   9.965550067E-05
   1.313700000E-02   9.965516505E+01  -2.988761383E+01  -9.803875006E+01   9.965457076E-05
   1.313800000E-02   9.965423449E+01  -2.988733387E+01  -9.804922210E+01   9.965363967E-05
   1.313900000E-02   9.965329773E+01  -2.988705356E+01  -9.805878624E+01   9.965270265E-05
   1.314000000E-02   9.974954582E+01  -1.493902963E+01  -9.806378369E+01   9.974894679E-05
   1.314100000E-02   9.984840451E+01  -9.981513452E-03  -9.803535379E+01   9.984781135E-05
   1.314200000E-02   9.982327057E+01  -4.181357727E+00  -9.801187614E+01   9.982267970E-05
   1.314300000E-02   9.975509240E+01  -1.487825859E+01  -9.799960104E+01   9.975449775E-05
   1.314400000E-02   9.967352966E+01  -2.747321131E+01  -9.800168809E+01   9.967293684E-05
   1.314500000E-02   9.965701905E+01  -2.988816888E+01  -9.801474136E+01   9.965642347E-05
   1.314600000E-02   9.965609469E+01  -2.988789203E+01  -9.802727246E+01   9.965550101E-05
   1.314700000E-02   9.965517106E+01  -2.988761532E+01  -9.803875249E+01   9.965457648E-05
   1.314800000E-02   9.965423555E+01  -2.988733567E+01  -9.804921990E+01   9.965364658E-05
   1.314900000E-02   9.965330356E+01  -2.988705380E+01  -9.805878227E+01   9.965270956E-05
   1.315000000E-02   9.974947577E+01  -1.495040146E+01  -9.806378214E+01   9.974887657E-05
   1.315100000E-02   9.984841222E+01  -9.981514042E-03  -9.803534982E+01   9.984781598E-05
   1.315200000E-02   9.982328252E+01  -4.180181883E+00  -9.801188184E+01   9.982269154E-05
   1.315300000E-02   9.975508341E+01  -1.488020757E+01  -9.799959479E+01   9.975448876E-05
   1.315400000E-02   9.967349790E+01  -2.747861456E+01  -9.800169204E+01   9.967290508E-05
   1.315500000E-02   9.965702347E+01  -2.988816997E+01  -9.801473889E+01   9.965643039E-05
   1.315600000E-02   9.965610196E+01  -2.988789383E+01  -9.802726965E+01   9.965550792E-05
   1.315700000E-02   9.965517282E+01  -2.988761578E+01  -9.803874072E+01   9.965457818E-05
   1.315800000E-02   9.965424226E+01  -2.988733582E+01  -9.804920670E+01   9.965364708E-05
   1.315900000E-02   9.965330479E+01  -2.988705529E+01  -9.805878287E+01   9.965270936E-05
   1.316000000E-02   9.974940204E+01  -1.496175364E+01  -9.806378058E+01   9.974880647E-05
   1.316100000E-02   9.984841305E+01  -9.981514124E-03  -9.803533145E+01   9.984781953E-05
   1.316200000E-02   9.982326818E+01  -4.182874743E+00  -9.801186576E+01   9.982267721E-05
   1.316300000E-02   9.975510483E+01  -1.487739266E+01  -9.799958932E+01   9.975451018E-05
   1.316400000E-02   9.967349272E+01  -2.747992179E+01  -9.800168506E+01   9.967289990E-05
   1.316500000E-02   9.965702397E+01  -2.988817202E+01  -9.801472693E+01   9.965643089E-05
   1.316600000E-02   9.965610246E+01  -2.988789588E+01  -9.802725532E+01   9.965550842E-05
   1.316700000E-02   9.965517883E+01  -2.988761762E+01  -9.803873552E+01   9.965458390E-05
   1.316800000E-02   9.965424332E+01  -2.988733762E+01  -9.804920308E+01   9.965364808E-05
   1.316900000E-02   9.965330513E+01  -2.988705575E+01  -9.805877178E+01   9.965271562E-05
   1.317000000E-02   9.974978337E+01  -1.490363515E+01  -9.806376139E+01   9.974918762E-05
   1.317100000E-02   9.984841953E+01  -9.981514360E-03  -9.803534163E+01   9.984781840E-05
   1.317200000E-02   9.982329042E+01  -4.180001621E+00  -9.801186988E+01   9.982269714E-05
   1.317300000E-02   9.975509585E+01  -1.487929553E+01  -9.799958613E+01   9.975450120E-05
